writereg 0x0328 0x00000005
writereg 0x032C 0x80000000
writereg 0x0404 0x00000002
writereg 0x0328 0x00000000
writereg 0x032C 0x80000004
writereg 0x0404 0x00000002
writereg 0x0328 0x00000407
writereg 0x032C 0x80000008
writereg 0x0404 0x00000002
writereg 0x0328 0x00B61700
writereg 0x032C 0x8000000C
writereg 0x0404 0x00000002
writereg 0x0328 0x00008207
writereg 0x032C 0x80000010
writereg 0x0404 0x00000002
writereg 0x0328 0x07010201
writereg 0x032C 0x80000014
writereg 0x0404 0x00000002
writereg 0x0328 0x00000044
writereg 0x032C 0x80000018
writereg 0x0404 0x00000002
writereg 0x0328 0x0000004C
writereg 0x032C 0x8000001C
writereg 0x0404 0x00000002
writereg 0x0328 0x000000BE
writereg 0x032C 0x80000020
writereg 0x0404 0x00000002
writereg 0x0328 0x00000000
writereg 0x032C 0x80000024
writereg 0x0404 0x00000002
writereg 0x0328 0x00050000
writereg 0x032C 0x80000028
writereg 0x0404 0x00000002
writereg 0x0328 0x000000B1
writereg 0x032C 0x8000002C
writereg 0x0404 0x00000002
writereg 0x0328 0x000000B1
writereg 0x032C 0x80000030
writereg 0x0404 0x00000002
writereg 0x0328 0x00000000
writereg 0x032C 0x80000034
writereg 0x0404 0x00000002
writereg 0x0328 0x00000000
writereg 0x032C 0x80000038
writereg 0x0404 0x00000002
writereg 0x0328 0x00000000
writereg 0x032C 0x8000003C
writereg 0x0404 0x00000002
writereg 0x0328 0x000000AF
writereg 0x032C 0x80000040
writereg 0x0404 0x00000002
writereg 0x0328 0x000000AF
writereg 0x032C 0x80000044
writereg 0x0404 0x00000002
#RR-COUNT
writereg 0x0328 0x0000001A 
writereg 0x032C 0x80000048
writereg 0x0404 0x00000002
#BUF_LEN
writereg 0x0328 0x000002C0
writereg 0x032C 0x8000004C
writereg 0x0404 0x00000002
writereg 0x0328 0x0000009B
writereg 0x032C 0x80000050
writereg 0x0404 0x00000002
writereg 0x0328 0x00000103
writereg 0x032C 0x80000054
writereg 0x0404 0x00000002
#IPV4
writereg 0x0328 0xE817FEA9
writereg 0x032C 0x80000058
writereg 0x0404 0x00000002
writereg 0x0328 0x00000000
writereg 0x032C 0x8000005C
writereg 0x0404 0x00000002
writereg 0x0328 0x80FE0010
writereg 0x032C 0x80000060
writereg 0x0404 0x00000002
writereg 0x0328 0x00000000
writereg 0x032C 0x80000064
writereg 0x0404 0x00000002
writereg 0x0328 0x3F080000
writereg 0x032C 0x80000068
writereg 0x0404 0x00000002
writereg 0x0328 0x555BE12C
writereg 0x032C 0x8000006C
writereg 0x0404 0x00000002
writereg 0x0328 0x0000BDE8
writereg 0x032C 0x80000070
writereg 0x0404 0x00000002
writereg 0x0328 0x00000000
writereg 0x032C 0x80000074
writereg 0x0404 0x00000002
writereg 0x0328 0x00000000
writereg 0x032C 0x80000078
writereg 0x0404 0x00000002
writereg 0x0328 0x00000000
writereg 0x032C 0x8000007C
writereg 0x0404 0x00000002
writereg 0x0328 0x00000000
writereg 0x032C 0x80000080
writereg 0x0404 0x00000002
writereg 0x0328 0x00000000
writereg 0x032C 0x80000084
writereg 0x0404 0x00000002
writereg 0x0328 0x00000000
writereg 0x032C 0x80000088
writereg 0x0404 0x00000002
writereg 0x0328 0x00000000
writereg 0x032C 0x8000008C
writereg 0x0404 0x00000002
writereg 0x0328 0x00000000
writereg 0x032C 0x80000090
writereg 0x0404 0x00000002
writereg 0x0328 0x00000000
writereg 0x032C 0x80000094
writereg 0x0404 0x00000002
writereg 0x0328 0x00000000
writereg 0x032C 0x80000098
writereg 0x0404 0x00000002
writereg 0x0328 0x00000000
writereg 0x032C 0x8000009C
writereg 0x0404 0x00000002
writereg 0x0328 0x00000000
writereg 0x032C 0x800000A0
writereg 0x0404 0x00000002
writereg 0x0328 0x00000000
writereg 0x032C 0x800000A4
writereg 0x0404 0x00000002
writereg 0x0328 0x00000000
writereg 0x032C 0x800000A8
writereg 0x0404 0x00000002
writereg 0x0328 0x00000000
writereg 0x032C 0x800000AC
writereg 0x0404 0x00000002
writereg 0x0328 0x00000000
writereg 0x032C 0x800000B0
writereg 0x0404 0x00000002
writereg 0x0328 0x00000000
writereg 0x032C 0x800000B4
writereg 0x0404 0x00000002
writereg 0x0328 0x00000000
writereg 0x032C 0x800000B8
writereg 0x0404 0x00000002
writereg 0x0328 0x00000000
writereg 0x032C 0x800000BC
writereg 0x0404 0x00000002
writereg 0x0328 0x00000000
writereg 0x032C 0x800000C0
writereg 0x0404 0x00000002
writereg 0x0328 0x00000000
writereg 0x032C 0x800000C4
writereg 0x0404 0x00000002
writereg 0x0328 0x00000000
writereg 0x032C 0x800000C8
writereg 0x0404 0x00000002
writereg 0x0328 0x00000000
writereg 0x032C 0x800000CC
writereg 0x0404 0x00000002
writereg 0x0328 0x00400000
writereg 0x032C 0x800000D0
writereg 0x0404 0x00000002
writereg 0x0328 0x00000000
writereg 0x032C 0x800000D4
writereg 0x0404 0x00000002
writereg 0x0328 0x01160000
writereg 0x032C 0x800000D8
writereg 0x0404 0x00000002
writereg 0x0328 0x020C17BD
writereg 0x032C 0x800000DC
writereg 0x0404 0x00000002
####
writereg 0x0328 0x0F090024
writereg 0x032C 0x800000E0
writereg 0x0404 0x00000002
writereg 0x0328 0x64000001
writereg 0x032C 0x800000E4
writereg 0x0404 0x00000002
writereg 0x0328 0x84000001
writereg 0x032C 0x800000E8
writereg 0x0404 0x00000002
writereg 0x0328 0xA9000001
writereg 0x032C 0x800000EC
writereg 0x0404 0x00000002
writereg 0x0328 0xB7000001
writereg 0x032C 0x800000F0
writereg 0x0404 0x00000002
writereg 0x0328 0xF3000001
writereg 0x032C 0x800000F4
writereg 0x0404 0x00000002
writereg 0x0328 0x13000001
writereg 0x032C 0x800000F8
writereg 0x0404 0x00000002
writereg 0x0328 0x21000002
writereg 0x032C 0x800000FC
writereg 0x0404 0x00000002
writereg 0x0328 0x2F000002
writereg 0x032C 0x80000100
writereg 0x0404 0x00000002
writereg 0x0328 0x4A000002
writereg 0x032C 0x80000104
writereg 0x0404 0x00000002
writereg 0x0328 0x58000002
writereg 0x032C 0x80000108
writereg 0x0404 0x00000002
writereg 0x0328 0x66000002
writereg 0x032C 0x8000010C
writereg 0x0404 0x00000002
writereg 0x0328 0x81000002
writereg 0x032C 0x80000110
writereg 0x0404 0x00000002
writereg 0x0328 0x8F000002
writereg 0x032C 0x80000114
writereg 0x0404 0x00000002
writereg 0x0328 0x9D000002
writereg 0x032C 0x80000118
writereg 0x0404 0x00000002
writereg 0x0328 0xBF000002
writereg 0x032C 0x8000011C
writereg 0x0404 0x00000002
writereg 0x0328 0xCD000002
writereg 0x032C 0x80000120
writereg 0x0404 0x00000002
writereg 0x0328 0xDB000002
writereg 0x032C 0x80000124
writereg 0x0404 0x00000002
writereg 0x0328 0xEF000002
writereg 0x032C 0x80000128
writereg 0x0404 0x00000002
writereg 0x0328 0x03000002
writereg 0x032C 0x8000012C
writereg 0x0404 0x00000002
writereg 0x0328 0x17000003
writereg 0x032C 0x80000130
writereg 0x0404 0x00000002
writereg 0x0328 0x2B000003
writereg 0x032C 0x80000134
writereg 0x0404 0x00000002
writereg 0x0328 0x3F000003
writereg 0x032C 0x80000138
writereg 0x0404 0x00000002
writereg 0x0328 0x9F000003
writereg 0x032C 0x8000013C
writereg 0x0404 0x00000002
writereg 0x0328 0xAD000003
writereg 0x032C 0x80000140
writereg 0x0404 0x00000002
writereg 0x0328 0xBB000003
writereg 0x032C 0x80000144
writereg 0x0404 0x00000002
writereg 0x0328 0x00000003
writereg 0x032C 0x80000148
writereg 0x0404 0x00000002
writereg 0x0328 0xEF000000
writereg 0x032C 0x8000014C
writereg 0x0404 0x00000002
writereg 0x0328 0xEFDEADBE
writereg 0x032C 0x80000150
writereg 0x0404 0x00000002
writereg 0x0328 0x09DEADBE
writereg 0x032C 0x80000154
writereg 0x0404 0x00000002
writereg 0x0328 0x72656B5F
writereg 0x032C 0x80000158
writereg 0x0404 0x00000002
writereg 0x0328 0x6F726562
writereg 0x032C 0x8000015C
writereg 0x0404 0x00000002
writereg 0x0328 0x4D690673
writereg 0x032C 0x80000160
writereg 0x0404 0x00000002
writereg 0x0328 0x332D6361
writereg 0x032C 0x80000164
writereg 0x0404 0x00000002
writereg 0x0328 0x636F6C05
writereg 0x032C 0x80000168
writereg 0x0404 0x00000002
writereg 0x0328 0x00006C61
writereg 0x032C 0x8000016C
writereg 0x0404 0x00000002
writereg 0x0328 0x00010010
writereg 0x032C 0x80000170
writereg 0x0404 0x00000002
writereg 0x0328 0x00941100
writereg 0x032C 0x80000174
writereg 0x0404 0x00000002
writereg 0x0328 0x4B4C3233
writereg 0x032C 0x80000178
writereg 0x0404 0x00000002
writereg 0x0328 0x533A4344
writereg 0x032C 0x8000017C
writereg 0x0404 0x00000002
writereg 0x0328 0x2E314148
writereg 0x032C 0x80000180
writereg 0x0404 0x00000002
writereg 0x0328 0x36383639
writereg 0x032C 0x80000184
writereg 0x0404 0x00000002
writereg 0x0328 0x30424633
writereg 0x032C 0x80000188
writereg 0x0404 0x00000002
writereg 0x0328 0x37393943
writereg 0x032C 0x8000018C
writereg 0x0404 0x00000002
writereg 0x0328 0x38314132
writereg 0x032C 0x80000190
writereg 0x0404 0x00000002
writereg 0x0328 0x31394131
writereg 0x032C 0x80000194
writereg 0x0404 0x00000002
writereg 0x0328 0x36453846
writereg 0x032C 0x80000198
writereg 0x0404 0x00000002
writereg 0x0328 0x41344337
writereg 0x032C 0x8000019C
writereg 0x0404 0x00000002
writereg 0x0328 0x37353943
writereg 0x032C 0x800001A0
writereg 0x0404 0x00000002
writereg 0x0328 0x46303644
writereg 0x032C 0x800001A4
writereg 0x0404 0x00000002
writereg 0x0328 0x37413443
writereg 0x032C 0x800001A8
writereg 0x0404 0x00000002
writereg 0x0328 0x614D6908
writereg 0x032C 0x800001AC
writereg 0x0404 0x00000002
writereg 0x0328 0x32282063
writereg 0x032C 0x800001B0
writereg 0x0404 0x00000002
writereg 0x0328 0x735F0429
writereg 0x032C 0x800001B4
writereg 0x0404 0x00000002
writereg 0x0328 0x5F046873
writereg 0x032C 0x800001B8
writereg 0x0404 0x00000002
writereg 0x0328 0xC0706374
writereg 0x032C 0x800001BC
writereg 0x0404 0x00000002
writereg 0x0328 0x8010001D
writereg 0x032C 0x800001C0
writereg 0x0404 0x00000002
writereg 0x0328 0x11000001
writereg 0x032C 0x800001C4
writereg 0x0404 0x00000002
writereg 0x0328 0x00010094
writereg 0x032C 0x800001C8
writereg 0x0404 0x00000002
writereg 0x0328 0x65735F09
writereg 0x032C 0x800001CC
writereg 0x0404 0x00000002
writereg 0x0328 0x63697672
writereg 0x032C 0x800001D0
writereg 0x0404 0x00000002
writereg 0x0328 0x5F077365
writereg 0x032C 0x800001D4
writereg 0x0404 0x00000002
writereg 0x0328 0x2D736E64
writereg 0x032C 0x800001D8
writereg 0x0404 0x00000002
writereg 0x0328 0x5F046473
writereg 0x032C 0x800001DC
writereg 0x0404 0x00000002
writereg 0x0328 0xC0706475
writereg 0x032C 0x800001E0
writereg 0x0404 0x00000002
writereg 0x0328 0x000C001D
writereg 0x032C 0x800001E4
writereg 0x0404 0x00000002
writereg 0x0328 0x11000001
writereg 0x032C 0x800001E8
writereg 0x0404 0x00000002
writereg 0x0328 0xC0020094
writereg 0x032C 0x800001EC
writereg 0x0404 0x00000002
writereg 0x0328 0x006AC06A
writereg 0x032C 0x800001F0
writereg 0x0404 0x00000002
writereg 0x0328 0x0001000C
writereg 0x032C 0x800001F4
writereg 0x0404 0x00000002
writereg 0x0328 0x00941100
writereg 0x032C 0x800001F8
writereg 0x0404 0x00000002
writereg 0x0328 0x0861C002
writereg 0x032C 0x800001FC
writereg 0x0404 0x00000002
writereg 0x0328 0x63614D69
writereg 0x032C 0x80000200
writereg 0x0404 0x00000002
writereg 0x0328 0x29322820
writereg 0x032C 0x80000204
writereg 0x0404 0x00000002
writereg 0x0328 0x65645F0C
writereg 0x032C 0x80000208
writereg 0x0404 0x00000002
writereg 0x0328 0x65636976
writereg 0x032C 0x8000020C
writereg 0x0404 0x00000002
writereg 0x0328 0x666E692D
writereg 0x032C 0x80000210
writereg 0x0404 0x00000002
writereg 0x0328 0x006FC06F
writereg 0x032C 0x80000214
writereg 0x0404 0x00000002
writereg 0x0328 0x00010010
writereg 0x032C 0x80000218
writereg 0x0404 0x00000002
writereg 0x0328 0x00941100
writereg 0x032C 0x8000021C
writereg 0x0404 0x00000002
writereg 0x0328 0x6F6D0E1A
writereg 0x032C 0x80000220
writereg 0x0404 0x00000002
writereg 0x0328 0x3D6C6564
writereg 0x032C 0x80000224
writereg 0x0404 0x00000002
writereg 0x0328 0x63614D69
writereg 0x032C 0x80000228
writereg 0x0404 0x00000002
writereg 0x0328 0x312C3631
writereg 0x032C 0x8000022C
writereg 0x0404 0x00000002
writereg 0x0328 0x78736F0A
writereg 0x032C 0x80000230
writereg 0x0404 0x00000002
writereg 0x0328 0x73726576
writereg 0x032C 0x80000234
writereg 0x0404 0x00000002
writereg 0x0328 0x0836313D
writereg 0x032C 0x80000238
writereg 0x0404 0x00000002
writereg 0x0328 0x63614D69
writereg 0x032C 0x8000023C
writereg 0x0404 0x00000002
writereg 0x0328 0x29322820
writereg 0x032C 0x80000240
writereg 0x0404 0x00000002
writereg 0x0328 0x66735F09
writereg 0x032C 0x80000244
writereg 0x0404 0x00000002
writereg 0x0328 0x732D7074
writereg 0x032C 0x80000248
writereg 0x0404 0x00000002
writereg 0x0328 0x6FC06873
writereg 0x032C 0x8000024C
writereg 0x0404 0x00000002
writereg 0x0328 0x01801000
writereg 0x032C 0x80000250
writereg 0x0404 0x00000002
writereg 0x0328 0x94110000
writereg 0x032C 0x80000254
writereg 0x0404 0x00000002
writereg 0x0328 0xC0000100
writereg 0x032C 0x80000258
writereg 0x0404 0x00000002
writereg 0x0328 0x000C0081
writereg 0x032C 0x8000025C
writereg 0x0404 0x00000002
writereg 0x0328 0x11000001
writereg 0x032C 0x80000260
writereg 0x0404 0x00000002
writereg 0x0328 0xC0020094
writereg 0x032C 0x80000264
writereg 0x0404 0x00000002
writereg 0x0328 0x00F9C0F9
writereg 0x032C 0x80000268
writereg 0x0404 0x00000002
writereg 0x0328 0x0001000C
writereg 0x032C 0x8000026C
writereg 0x0404 0x00000002
writereg 0x0328 0x00941100
writereg 0x032C 0x80000270
writereg 0x0404 0x00000002
writereg 0x0328 0x08F0C002
writereg 0x032C 0x80000274
writereg 0x0404 0x00000002
writereg 0x0328 0x63614D69
writereg 0x032C 0x80000278
writereg 0x0404 0x00000002
writereg 0x0328 0x29322820
writereg 0x032C 0x8000027C
writereg 0x0404 0x00000002
writereg 0x0328 0x6D735F04
writereg 0x032C 0x80000280
writereg 0x0404 0x00000002
writereg 0x0328 0x006FC062
writereg 0x032C 0x80000284
writereg 0x0404 0x00000002
writereg 0x0328 0x00018010
writereg 0x032C 0x80000288
writereg 0x0404 0x00000002
writereg 0x0328 0x00941100
writereg 0x032C 0x8000028C
writereg 0x0404 0x00000002
writereg 0x0328 0x81C00001
writereg 0x032C 0x80000290
writereg 0x0404 0x00000002
writereg 0x0328 0x01000C00
writereg 0x032C 0x80000294
writereg 0x0404 0x00000002
writereg 0x0328 0x94110000
writereg 0x032C 0x80000298
writereg 0x0404 0x00000002
writereg 0x0328 0x35C10200
writereg 0x032C 0x8000029C
writereg 0x0404 0x00000002
writereg 0x0328 0x0C0035C1
writereg 0x032C 0x800002A0
writereg 0x0404 0x00000002
writereg 0x0328 0x00000100
writereg 0x032C 0x800002A4
writereg 0x0404 0x00000002
writereg 0x0328 0x02009411
writereg 0x032C 0x800002A8
writereg 0x0404 0x00000002
writereg 0x0328 0x69082CC1
writereg 0x032C 0x800002AC
writereg 0x0404 0x00000002
writereg 0x0328 0x2063614D
writereg 0x032C 0x800002B0
writereg 0x0404 0x00000002
writereg 0x0328 0x04293228
writereg 0x032C 0x800002B4
writereg 0x0404 0x00000002
writereg 0x0328 0x6266725F
writereg 0x032C 0x800002B8
writereg 0x0404 0x00000002
writereg 0x0328 0x10006FC0
writereg 0x032C 0x800002BC
writereg 0x0404 0x00000002
writereg 0x0328 0x00000180
writereg 0x032C 0x800002C0
writereg 0x0404 0x00000002
writereg 0x0328 0x01009411
writereg 0x032C 0x800002C4
writereg 0x0404 0x00000002
writereg 0x0328 0x0081C000
writereg 0x032C 0x800002C8
writereg 0x0404 0x00000002
writereg 0x0328 0x0001000C
writereg 0x032C 0x800002CC
writereg 0x0404 0x00000002
writereg 0x0328 0x00941100
writereg 0x032C 0x800002D0
writereg 0x0404 0x00000002
writereg 0x0328 0xC16CC102
writereg 0x032C 0x800002D4
writereg 0x0404 0x00000002
writereg 0x0328 0x000C006C
writereg 0x032C 0x800002D8
writereg 0x0404 0x00000002
writereg 0x0328 0x11000001
writereg 0x032C 0x800002DC
writereg 0x0404 0x00000002
writereg 0x0328 0xC1020094
writereg 0x032C 0x800002E0
writereg 0x0404 0x00000002
writereg 0x0328 0x4D690863
writereg 0x032C 0x800002E4
writereg 0x0404 0x00000002
writereg 0x0328 0x28206361
writereg 0x032C 0x800002E8
writereg 0x0404 0x00000002
writereg 0x0328 0x5F0B2932
writereg 0x032C 0x800002EC
writereg 0x0404 0x00000002
writereg 0x0328 0x6F706661
writereg 0x032C 0x800002F0
writereg 0x0404 0x00000002
writereg 0x0328 0x74726576
writereg 0x032C 0x800002F4
writereg 0x0404 0x00000002
writereg 0x0328 0x6FC07063
writereg 0x032C 0x800002F8
writereg 0x0404 0x00000002
writereg 0x0328 0x01801000
writereg 0x032C 0x800002FC
writereg 0x0404 0x00000002
writereg 0x0328 0x94110000
writereg 0x032C 0x80000300
writereg 0x0404 0x00000002
writereg 0x0328 0xC0000100
writereg 0x032C 0x80000304
writereg 0x0404 0x00000002
writereg 0x0328 0x000C0081
writereg 0x032C 0x80000308
writereg 0x0404 0x00000002
writereg 0x0328 0x11000001
writereg 0x032C 0x8000030C
writereg 0x0404 0x00000002
writereg 0x0328 0xC1020094
writereg 0x032C 0x80000310
writereg 0x0404 0x00000002
writereg 0x0328 0x00A3C1A3
writereg 0x032C 0x80000314
writereg 0x0404 0x00000002
writereg 0x0328 0x0001000C
writereg 0x032C 0x80000318
writereg 0x0404 0x00000002
writereg 0x0328 0x00941100
writereg 0x032C 0x8000031C
writereg 0x0404 0x00000002
writereg 0x0328 0xC09AC102
writereg 0x032C 0x80000320
writereg 0x0404 0x00000002
writereg 0x0328 0x80210061
writereg 0x032C 0x80000324
writereg 0x0404 0x00000002
writereg 0x0328 0x00000001
writereg 0x032C 0x80000328
writereg 0x0404 0x00000002
writereg 0x0328 0x00080078
writereg 0x032C 0x8000032C
writereg 0x0404 0x00000002
writereg 0x0328 0x00000000
writereg 0x032C 0x80000330
writereg 0x0404 0x00000002
writereg 0x0328 0xC016C016
writereg 0x032C 0x80000334
writereg 0x0404 0x00000002
writereg 0x0328 0x802100F0
writereg 0x032C 0x80000338
writereg 0x0404 0x00000002
writereg 0x0328 0x00000001
writereg 0x032C 0x8000033C
writereg 0x0404 0x00000002
writereg 0x0328 0x00080078
writereg 0x032C 0x80000340
writereg 0x0404 0x00000002
writereg 0x0328 0x00000000
writereg 0x032C 0x80000344
writereg 0x0404 0x00000002
writereg 0x0328 0xC116C016
writereg 0x032C 0x80000348
writereg 0x0404 0x00000002
writereg 0x0328 0x8021002C
writereg 0x032C 0x8000034C
writereg 0x0404 0x00000002
writereg 0x0328 0x00000001
writereg 0x032C 0x80000350
writereg 0x0404 0x00000002
writereg 0x0328 0x00080078
writereg 0x032C 0x80000354
writereg 0x0404 0x00000002
writereg 0x0328 0x01000000
writereg 0x032C 0x80000358
writereg 0x0404 0x00000002
writereg 0x0328 0xC116C0BD
writereg 0x032C 0x8000035C
writereg 0x0404 0x00000002
writereg 0x0328 0x80210063
writereg 0x032C 0x80000360
writereg 0x0404 0x00000002
writereg 0x0328 0x00000001
writereg 0x032C 0x80000364
writereg 0x0404 0x00000002
writereg 0x0328 0x00080078
writereg 0x032C 0x80000368
writereg 0x0404 0x00000002
writereg 0x0328 0x17000000
writereg 0x032C 0x8000036C
writereg 0x0404 0x00000002
writereg 0x0328 0xC116C00C
writereg 0x032C 0x80000370
writereg 0x0404 0x00000002
writereg 0x0328 0x8021009A
writereg 0x032C 0x80000374
writereg 0x0404 0x00000002
writereg 0x0328 0x00000001
writereg 0x032C 0x80000378
writereg 0x0404 0x00000002
writereg 0x0328 0x00080078
writereg 0x032C 0x8000037C
writereg 0x0404 0x00000002
writereg 0x0328 0x02000000
writereg 0x032C 0x80000380
writereg 0x0404 0x00000002
writereg 0x0328 0x1C16C024
writereg 0x032C 0x80000384
writereg 0x0404 0x00000002
writereg 0x0328 0x63614D69
writereg 0x032C 0x80000388
writereg 0x0404 0x00000002
writereg 0x0328 0x29322820
writereg 0x032C 0x8000038C
writereg 0x0404 0x00000002
writereg 0x0328 0x38335B20
writereg 0x032C 0x80000390
writereg 0x0404 0x00000002
writereg 0x0328 0x3A39633A
writereg 0x032C 0x80000394
writereg 0x0404 0x00000002
writereg 0x0328 0x303A3638
writereg 0x032C 0x80000398
writereg 0x0404 0x00000002
writereg 0x0328 0x61323A35
writereg 0x032C 0x8000039C
writereg 0x0404 0x00000002
writereg 0x0328 0x5D61643A
writereg 0x032C 0x800003A0
writereg 0x0404 0x00000002
writereg 0x0328 0x6F775F0C
writereg 0x032C 0x800003A4
writereg 0x0404 0x00000002
writereg 0x0328 0x74736B72
writereg 0x032C 0x800003A8
writereg 0x0404 0x00000002
writereg 0x0328 0x6F697461
writereg 0x032C 0x800003AC
writereg 0x0404 0x00000002
writereg 0x0328 0x006FC06E
writereg 0x032C 0x800003B0
writereg 0x0404 0x00000002
writereg 0x0328 0x00018010
writereg 0x032C 0x800003B4
writereg 0x0404 0x00000002
writereg 0x0328 0x00941100
writereg 0x032C 0x800003B8
writereg 0x0404 0x00000002
writereg 0x0328 0x7575292A
writereg 0x032C 0x800003BC
writereg 0x0404 0x00000002
writereg 0x0328 0x373D6469
writereg 0x032C 0x800003C0
writereg 0x0404 0x00000002
writereg 0x0328 0x30434638
writereg 0x032C 0x800003C4
writereg 0x0404 0x00000002
writereg 0x0328 0x2D394338
writereg 0x032C 0x800003C8
writereg 0x0404 0x00000002
writereg 0x0328 0x42394641
writereg 0x032C 0x800003CC
writereg 0x0404 0x00000002
writereg 0x0328 0x4431352D
writereg 0x032C 0x800003D0
writereg 0x0404 0x00000002
writereg 0x0328 0x42412D46
writereg 0x032C 0x800003D4
writereg 0x0404 0x00000002
writereg 0x0328 0x352D3342
writereg 0x032C 0x800003D8
writereg 0x0404 0x00000002
writereg 0x0328 0x33463034
writereg 0x032C 0x800003DC
writereg 0x0404 0x00000002
writereg 0x0328 0x41393145
writereg 0x032C 0x800003E0
writereg 0x0404 0x00000002
writereg 0x0328 0xC0304639
writereg 0x032C 0x800003E4
writereg 0x0404 0x00000002
writereg 0x0328 0x000C0081
writereg 0x032C 0x800003E8
writereg 0x0404 0x00000002
writereg 0x0328 0x11000001
writereg 0x032C 0x800003EC
writereg 0x0404 0x00000002
writereg 0x0328 0xC2020094
writereg 0x032C 0x800003F0
writereg 0x0404 0x00000002
writereg 0x0328 0x0059C259
writereg 0x032C 0x800003F4
writereg 0x0404 0x00000002
writereg 0x0328 0x0001000C
writereg 0x032C 0x800003F8
writereg 0x0404 0x00000002
writereg 0x0328 0x00941100
writereg 0x032C 0x800003FC
writereg 0x0404 0x00000002
writereg 0x0328 0xC23CC202
writereg 0x032C 0x80000400
writereg 0x0404 0x00000002
writereg 0x0328 0x8021003C
writereg 0x032C 0x80000404
writereg 0x0404 0x00000002